
T2918 000:487 SEGGER J-Link V4.90e Log File (0000ms, 0278ms total)
T2918 000:487 DLL Compiled: Sep  8 2014 18:46:31 (0000ms, 0278ms total)
T2918 000:487 Logging started @ 2018-01-24 17:32 (0000ms, 0278ms total)
T2918 000:487 JLINK_SetWarnOutHandler(...) (0000ms, 0278ms total)
T2918 000:487 JLINK_OpenEx(...)
Firmware: J-Link V9 compiled Feb 20 2015 09:20:19
Hardware: V9.20
Feature(s): GDB, RDI, FlashBP, FlashDL, JFlash  returns O.K. (0268ms, 0546ms total)
T2918 000:755 JLINK_SetErrorOutHandler(...) (0000ms, 0546ms total)
T2918 000:755 JLINK_ExecCommand("ProjectFile = "G:\edu\ARM_IOT\lecture\TIMER_PWM\TIMER_PWM\JLinkSettings.ini"", ...)  returns 0x00 (0001ms, 0547ms total)
T2918 000:756 JLINK_ExecCommand("Device = STM32F103C8", ...)Device "STM32F103C8" selected (64 KB flash, 20 KB RAM).  returns 0x00 (0001ms, 0548ms total)
T2918 000:757 JLINK_ExecCommand("DisableConnectionTimeout", ...)  returns 0x01 (0000ms, 0548ms total)
T2918 000:757 JLINK_GetHardwareVersion()  returns 0x16760 (0000ms, 0548ms total)
T2918 000:757 JLINK_GetDLLVersion()  returns 49005 (0000ms, 0548ms total)
T2918 000:757 JLINK_GetFirmwareString(...) (0000ms, 0548ms total)
T2918 000:758 JLINK_GetDLLVersion()  returns 49005 (0000ms, 0548ms total)
T2918 000:758 JLINK_GetCompileDateTime() (0000ms, 0548ms total)
T2918 000:758 JLINK_GetFirmwareString(...) (0000ms, 0548ms total)
T2918 000:759 JLINK_GetHardwareVersion()  returns 0x16760 (0000ms, 0548ms total)
T2918 000:760 JLINK_TIF_Select(JLINKARM_TIF_JTAG)  returns 0x00 (0002ms, 0550ms total)
T2918 000:762 JLINK_SetSpeed(20000) (0001ms, 0551ms total)
T2918 000:763 JLINK_GetIdData(...) >0x2F8 JTAG>TotalIRLen = 9, IRPrint = 0x0011 >0x30 JTAG> >0x210 JTAG> >0x40 JTAG> >0x40 JTAG> >0x40 JTAG> >0x30 JTAG> >0x40 JTAG> >0x40 JTAG> >0x40 JTAG> >0x40 JTAG> >0x40 JTAG> >0x40 JTAG> >0x40 JTAG> >0x40 JTAG> >0x2F8 JTAG>TotalIRLen = 9, IRPrint = 0x0011 >0x30 JTAG> >0x210 JTAG> >0x70 JTAG> >0x40 JTAG> >0x40 JTAG> >0x40 JTAG> >0x50 JTAG> >0x80 JTAG> >0x40 JTAG> >0x30 JTAG> >0x40 JTAG> >0x40 JTAG> >0x30 JTAG> >0x40 JTAG> >0x50 JTAG>
Found Cortex-M3 r1p1, Little endian. -- CPU_WriteMem(4 bytes @ 0xE0002000) -- CPU_ReadMem(4 bytes @ 0xE000EDF0) -- CPU_ReadMem(4 bytes @ 0xE0002000)FPUnit: 6 code (BP) slots and 2 literal slots -- CPU_ReadMem(4 bytes @ 0xE000EDFC) -- CPU_ReadMem(4 bytes @ 0xE0001000) -- CPU_WriteMem(4 bytes @ 0xE0001000) -- CPU_ReadMem(4 bytes @ 0xE000ED88) -- CPU_WriteMem(4 bytes @ 0xE000ED88) -- CPU_ReadMem(4 bytes @ 0xE000ED88) -- CPU_WriteMem(4 bytes @ 0xE000ED88) -- CPU_ReadMem(4 bytes @ 0xE00FF010)TPIU fitted.
 -- CPU_ReadMem(4 bytes @ 0xE00FF014)ETM fitted. -- CPU_ReadMem(4 bytes @ 0xE00FF018) ScanLen=9 NumDevices=2 aId[0]=0x3BA00477 aIrRead[0]=0 aScanLen[0]=0 aScanRead[0]=0 (0026ms, 0577ms total)
T2918 000:789 JLINK_JTAG_GetDeviceID(DeviceIndex = 0)  returns 0x3BA00477 (0000ms, 0577ms total)
T2918 000:789 JLINK_JTAG_GetDeviceInfo(DeviceIndex = 0)  returns 0x00 (0000ms, 0577ms total)
T2918 000:789 JLINK_JTAG_GetDeviceID(DeviceIndex = 1)  returns 0x6414041 (0000ms, 0577ms total)
T2918 000:789 JLINK_JTAG_GetDeviceInfo(DeviceIndex = 1)  returns 0x00 (0000ms, 0577ms total)
T2918 000:789 JLINK_GetDLLVersion()  returns 49005 (0000ms, 0577ms total)
T2918 000:789 JLINK_CORE_GetFound()  returns 0x30000FF (0000ms, 0577ms total)
T2918 000:790 JLINK_ReadMem (0xE00FF000, 0x0020 Bytes, ...) -- CPU is running -- CPU_ReadMem(32 bytes @ 0xE00FF000) - Data: 03 F0 F0 FF 03 20 F0 FF 03 30 F0 FF 03 10 F0 FF ...  returns 0x00 (0000ms, 0577ms total)
T2918 000:790 JLINK_ReadMem (0xE000EFF0, 0x0010 Bytes, ...) -- CPU is running -- CPU_ReadMem(16 bytes @ 0xE000EFF0) - Data: 0D 00 00 00 E0 00 00 00 05 00 00 00 B1 00 00 00  returns 0x00 (0001ms, 0578ms total)
T2918 000:791 JLINK_ReadMem (0xE000EFD0, 0x0020 Bytes, ...) -- CPU is running -- CPU_ReadMem(32 bytes @ 0xE000EFD0) - Data: 04 00 00 00 00 00 00 00 00 00 00 00 00 00 00 00 ...  returns 0x00 (0000ms, 0578ms total)
T2918 000:791 JLINK_ReadMem (0xE0001FF0, 0x0010 Bytes, ...) -- CPU is running -- CPU_ReadMem(16 bytes @ 0xE0001FF0) - Data: 0D 00 00 00 E0 00 00 00 05 00 00 00 B1 00 00 00  returns 0x00 (0001ms, 0579ms total)
T2918 000:792 JLINK_ReadMem (0xE0001FD0, 0x0020 Bytes, ...) -- CPU is running -- CPU_ReadMem(32 bytes @ 0xE0001FD0) - Data: 04 00 00 00 00 00 00 00 00 00 00 00 00 00 00 00 ...  returns 0x00 (0000ms, 0579ms total)
T2918 000:792 JLINK_ReadMem (0xE0002FF0, 0x0010 Bytes, ...) -- CPU is running -- CPU_ReadMem(16 bytes @ 0xE0002FF0) - Data: 0D 00 00 00 E0 00 00 00 05 00 00 00 B1 00 00 00  returns 0x00 (0001ms, 0580ms total)
T2918 000:793 JLINK_ReadMem (0xE0002FD0, 0x0020 Bytes, ...) -- CPU is running -- CPU_ReadMem(32 bytes @ 0xE0002FD0) - Data: 04 00 00 00 00 00 00 00 00 00 00 00 00 00 00 00 ...  returns 0x00 (0001ms, 0581ms total)
T2918 000:794 JLINK_ReadMem (0xE0000FF0, 0x0010 Bytes, ...) -- CPU is running -- CPU_ReadMem(16 bytes @ 0xE0000FF0) - Data: 0D 00 00 00 E0 00 00 00 05 00 00 00 B1 00 00 00  returns 0x00 (0000ms, 0581ms total)
T2918 000:794 JLINK_ReadMem (0xE0000FD0, 0x0020 Bytes, ...) -- CPU is running -- CPU_ReadMem(32 bytes @ 0xE0000FD0) - Data: 04 00 00 00 00 00 00 00 00 00 00 00 00 00 00 00 ...  returns 0x00 (0001ms, 0582ms total)
T2918 000:795 JLINK_ReadMem (0xE0040FF0, 0x0010 Bytes, ...) -- CPU is running -- CPU_ReadMem(16 bytes @ 0xE0040FF0) - Data: 0D 00 00 00 90 00 00 00 05 00 00 00 B1 00 00 00  returns 0x00 (0001ms, 0583ms total)
T2918 000:796 JLINK_ReadMem (0xE0040FD0, 0x0020 Bytes, ...) -- CPU is running -- CPU_ReadMem(32 bytes @ 0xE0040FD0) - Data: 04 00 00 00 00 00 00 00 00 00 00 00 00 00 00 00 ...  returns 0x00 (0000ms, 0583ms total)
T2918 000:796 JLINK_ReadMem (0xE0041FF0, 0x0010 Bytes, ...) -- CPU is running -- CPU_ReadMem(16 bytes @ 0xE0041FF0) - Data: 0D 00 00 00 90 00 00 00 05 00 00 00 B1 00 00 00  returns 0x00 (0001ms, 0584ms total)
T2918 000:797 JLINK_ReadMem (0xE0041FD0, 0x0020 Bytes, ...) -- CPU is running -- CPU_ReadMem(32 bytes @ 0xE0041FD0) - Data: 04 00 00 00 00 00 00 00 00 00 00 00 00 00 00 00 ...  returns 0x00 (0000ms, 0584ms total)
T2918 000:797 JLINK_ReadMemU32(0xE000ED00, 0x0001 Items, ...) -- CPU is running -- CPU_ReadMem(4 bytes @ 0xE000ED00) - Data: 31 C2 1F 41  returns 0x01 (0001ms, 0585ms total)
T2918 000:798 JLINK_SetResetType(JLINKARM_RESET_TYPE_NORMAL)  returns JLINKARM_RESET_TYPE_NORMAL (0000ms, 0585ms total)
T2918 000:798 JLINK_Reset() -- CPU is running -- CPU_WriteMem(4 bytes @ 0xE000EDF0) -- CPU is running -- CPU_WriteMem(4 bytes @ 0xE000EDFC) -- CPU is running -- CPU_WriteMem(4 bytes @ 0xE000ED0C) -- CPU is running -- CPU_ReadMem(4 bytes @ 0xE000EDF0) -- CPU is running -- CPU_ReadMem(4 bytes @ 0xE000EDF0) -- CPU is running -- CPU_WriteMem(4 bytes @ 0xE000EDF0) -- CPU is running -- CPU_WriteMem(4 bytes @ 0xE000EDFC) -- CPU is running -- CPU_ReadMem(4 bytes @ 0xE000EDF0) >0x80 JTAG> >0x40 JTAG> >0x30 JTAG>
 >0x40 JTAG> >0x50 JTAG> >0x40 JTAG> -- CPU_WriteMem(4 bytes @ 0xE000EDFC) -- CPU_WriteMem(4 bytes @ 0xE0001028) -- CPU_WriteMem(4 bytes @ 0xE0001038) -- CPU_WriteMem(4 bytes @ 0xE0001048) -- CPU_WriteMem(4 bytes @ 0xE0001058) -- CPU_WriteMem(4 bytes @ 0xE0002000) -- CPU_ReadMem(4 bytes @ 0xE000EDFC) -- CPU_ReadMem(4 bytes @ 0xE0001000) (0024ms, 0609ms total)
T2918 000:822 JLINK_ReadReg(R15 (PC))  returns 0x08000188 (0000ms, 0609ms total)
T2918 000:822 JLINK_ReadReg(XPSR)  returns 0x01000000 (0000ms, 0609ms total)
T2918 000:822 JLINK_Halt()  returns 0x00 (0000ms, 0609ms total)
T2918 000:822 JLINK_IsHalted()  returns TRUE (0000ms, 0609ms total)
T2918 000:822 JLINK_ReadMemU32(0xE000EDF0, 0x0001 Items, ...) -- CPU_ReadMem(4 bytes @ 0xE000EDF0) - Data: 03 00 03 00  returns 0x01 (0001ms, 0610ms total)
T2918 000:823 JLINK_WriteU32(0xE000EDF0, 0xA05F0003) -- CPU_WriteMem(4 bytes @ 0xE000EDF0)  returns 0x00 (0001ms, 0611ms total)
T2918 000:824 JLINK_WriteU32(0xE000EDFC, 0x01000000) -- CPU_WriteMem(4 bytes @ 0xE000EDFC)  returns 0x00 (0000ms, 0611ms total)
T2918 000:825 JLINK_GetHWStatus(...)  returns 0x00 (0000ms, 0611ms total)
T2918 000:826 JLINK_GetNumBPUnits(Type = 0xFFFFFF00)  returns 0x06 (0000ms, 0611ms total)
T2918 000:826 JLINK_GetNumBPUnits(Type = 0xF0)  returns 0x2000 (0000ms, 0611ms total)
T2918 000:826 JLINK_GetNumWPUnits()  returns 0x04 (0000ms, 0611ms total)
T2918 000:826 JLINK_GetSpeed()  returns 0x3A98 (0000ms, 0611ms total)
T2918 000:827 JLINK_ReadMemU32(0xE000E004, 0x0001 Items, ...) -- CPU_ReadMem(4 bytes @ 0xE000E004) - Data: 01 00 00 00  returns 0x01 (0000ms, 0611ms total)
T2918 000:827 JLINK_ReadMemU32(0xE000E004, 0x0001 Items, ...) -- CPU_ReadMem(4 bytes @ 0xE000E004) - Data: 01 00 00 00  returns 0x01 (0001ms, 0612ms total)
T2918 000:828 JLINK_WriteMem(0xE0001000, 0x001C Bytes, ...) - Data: 01 00 00 00 00 00 00 00 00 00 00 00 00 00 00 00 ... -- CPU_WriteMem(28 bytes @ 0xE0001000)  returns 0x1C (0000ms, 0612ms total)
T2918 000:828 JLINK_ReadMem (0xE0001000, 0x001C Bytes, ...) -- CPU_ReadMem(28 bytes @ 0xE0001000) - Data: 01 00 00 40 00 00 00 00 00 00 00 00 00 00 00 00 ...  returns 0x00 (0001ms, 0613ms total)
T2918 000:829 JLINK_ReadReg(R15 (PC))  returns 0x08000188 (0000ms, 0613ms total)
T2918 000:829 JLINK_ReadReg(XPSR)  returns 0x01000000 (0000ms, 0613ms total)
T2918 000:894 JLINK_SetResetType(JLINKARM_RESET_TYPE_NORMAL)  returns JLINKARM_RESET_TYPE_NORMAL (0000ms, 0613ms total)
T2918 000:894 JLINK_Reset() -- CPU_WriteMem(4 bytes @ 0xE000EDF0) -- CPU_WriteMem(4 bytes @ 0xE000EDFC) -- CPU_WriteMem(4 bytes @ 0xE000ED0C) -- CPU_ReadMem(4 bytes @ 0xE000EDF0) -- CPU_ReadMem(4 bytes @ 0xE000EDF0) -- CPU_WriteMem(4 bytes @ 0xE000EDF0) -- CPU_WriteMem(4 bytes @ 0xE000EDFC) -- CPU is running -- CPU_ReadMem(4 bytes @ 0xE000EDF0) >0x80 JTAG> >0x40 JTAG> >0x30 JTAG> >0x40 JTAG> >0x50 JTAG> >0x40 JTAG> -- CPU_WriteMem(4 bytes @ 0xE000EDFC) -- CPU_WriteMem(4 bytes @ 0xE0001028)
 -- CPU_WriteMem(4 bytes @ 0xE0001038) -- CPU_WriteMem(4 bytes @ 0xE0001048) -- CPU_WriteMem(4 bytes @ 0xE0001058) -- CPU_WriteMem(4 bytes @ 0xE0002000) -- CPU_ReadMem(4 bytes @ 0xE000EDFC) -- CPU_ReadMem(4 bytes @ 0xE0001000) (0025ms, 0638ms total)
T2918 000:919 JLINK_ReadReg(R15 (PC))  returns 0x08000188 (0000ms, 0638ms total)
T2918 000:919 JLINK_ReadReg(XPSR)  returns 0x01000000 (0000ms, 0638ms total)
T2918 000:920 JLINK_ReadMem (0x080000EC, 0x003C Bytes, ...) -- CPU_ReadMem(128 bytes @ 0x080000C0) -- Updating C cache (128 bytes @ 0x080000C0) -- Read from C cache (60 bytes @ 0x080000EC) - Data: 00 F0 02 F8 00 F0 3A F8 0A A0 90 E8 00 0C 82 44 ...  returns 0x00 (0001ms, 0639ms total)
T2918 000:921 JLINK_ReadMem (0x08000128, 0x003C Bytes, ...) -- CPU_ReadMem(64 bytes @ 0x08000140) -- Updating C cache (64 bytes @ 0x08000140) -- Read from C cache (60 bytes @ 0x08000128) - Data: 10 3A 24 BF 78 C8 78 C1 FA D8 52 07 24 BF 30 C8 ...  returns 0x00 (0000ms, 0639ms total)
T2918 000:922 JLINK_ReadMem (0x08000164, 0x003C Bytes, ...) -- CPU_ReadMem(64 bytes @ 0x08000180) -- Updating C cache (64 bytes @ 0x08000180) -- Read from C cache (60 bytes @ 0x08000164) - Data: 10 B5 10 BD 00 F0 11 FA 11 46 FF F7 F7 FF 00 F0 ...  returns 0x00 (0000ms, 0640ms total)
T2918 001:005 JLINK_ReadMem (0x4002101C, 0x0004 Bytes, ...) -- CPU_ReadMem(4 bytes @ 0x4002101C) - Data: 00 00 00 00  returns 0x00 (0001ms, 0641ms total)
T2918 001:006 JLINK_ReadMem (0x40021010, 0x0004 Bytes, ...) -- CPU_ReadMem(4 bytes @ 0x40021010) - Data: 00 00 00 00  returns 0x00 (0000ms, 0641ms total)
T2918 001:006 JLINK_ReadMem (0x40021014, 0x0004 Bytes, ...) -- CPU_ReadMem(4 bytes @ 0x40021014) - Data: 14 00 00 00  returns 0x00 (0001ms, 0642ms total)
T2918 001:031 JLINK_ReadMem (0x40021018, 0x0004 Bytes, ...) -- CPU_ReadMem(4 bytes @ 0x40021018) - Data: 00 00 00 00  returns 0x00 (0001ms, 0643ms total)
T2918 001:032 JLINK_ReadMem (0x4002100C, 0x0004 Bytes, ...) -- CPU_ReadMem(4 bytes @ 0x4002100C) - Data: 00 00 00 00  returns 0x00 (0000ms, 0643ms total)
T2918 001:032 JLINK_ReadMem (0x40021014, 0x0004 Bytes, ...) -- CPU_ReadMem(4 bytes @ 0x40021014) - Data: 14 00 00 00  returns 0x00 (0001ms, 0644ms total)
T2918 001:070 JLINK_ReadMem (0x40010C00, 0x0004 Bytes, ...) -- CPU_ReadMem(4 bytes @ 0x40010C00) - Data: 44 44 48 44  returns 0x00 (0001ms, 0645ms total)
T2918 001:071 JLINK_ReadMem (0x40010C04, 0x0004 Bytes, ...) -- CPU_ReadMem(4 bytes @ 0x40010C04) - Data: 44 44 44 44  returns 0x00 (0001ms, 0646ms total)
T2918 001:072 JLINK_ReadMem (0x40010C08, 0x0004 Bytes, ...) -- CPU_ReadMem(4 bytes @ 0x40010C08) - Data: 00 00 00 00  returns 0x00 (0000ms, 0646ms total)
T2918 001:072 JLINK_ReadMem (0x40010C0C, 0x0004 Bytes, ...) -- CPU_ReadMem(4 bytes @ 0x40010C0C) - Data: 10 00 00 00  returns 0x00 (0001ms, 0647ms total)
T2918 001:073 JLINK_ReadMem (0x40010C10, 0x0004 Bytes, ...) -- CPU_ReadMem(4 bytes @ 0x40010C10) - Data: 00 00 00 00  returns 0x00 (0000ms, 0647ms total)
T2918 001:073 JLINK_ReadMem (0x40010C14, 0x0004 Bytes, ...) -- CPU_ReadMem(4 bytes @ 0x40010C14) - Data: 00 00 00 00  returns 0x00 (0001ms, 0648ms total)
T2918 001:074 JLINK_ReadMem (0x40010C18, 0x0004 Bytes, ...) -- CPU_ReadMem(4 bytes @ 0x40010C18) - Data: 00 00 00 00  returns 0x00 (0000ms, 0648ms total)
T2918 001:075 JLINK_ReadMem (0x40021018, 0x0004 Bytes, ...) -- CPU_ReadMem(4 bytes @ 0x40021018) - Data: 00 00 00 00  returns 0x00 (0001ms, 0649ms total)
T2918 001:076 JLINK_ReadMem (0x4002100C, 0x0004 Bytes, ...) -- CPU_ReadMem(4 bytes @ 0x4002100C) - Data: 00 00 00 00  returns 0x00 (0001ms, 0650ms total)
T2918 001:221 JLINK_ReadMem (0x40010000, 0x0004 Bytes, ...) -- CPU_ReadMem(4 bytes @ 0x40010000) - Data: 00 00 00 00  returns 0x00 (0001ms, 0651ms total)
T2918 001:222 JLINK_ReadMem (0x40010004, 0x0004 Bytes, ...) -- CPU_ReadMem(4 bytes @ 0x40010004) - Data: 00 00 00 00  returns 0x00 (0000ms, 0651ms total)
T2918 001:222 JLINK_ReadMem (0x40010008, 0x0004 Bytes, ...) -- CPU_ReadMem(4 bytes @ 0x40010008) - Data: 00 00 00 00  returns 0x00 (0001ms, 0652ms total)
T2918 001:223 JLINK_ReadMem (0x4001000C, 0x0004 Bytes, ...) -- CPU_ReadMem(4 bytes @ 0x4001000C) - Data: 00 00 00 00  returns 0x00 (0000ms, 0652ms total)
T2918 001:223 JLINK_ReadMem (0x40010010, 0x0004 Bytes, ...) -- CPU_ReadMem(4 bytes @ 0x40010010) - Data: 00 00 00 00  returns 0x00 (0001ms, 0653ms total)
T2918 001:224 JLINK_ReadMem (0x40010014, 0x0004 Bytes, ...) -- CPU_ReadMem(4 bytes @ 0x40010014) - Data: 00 00 00 00  returns 0x00 (0000ms, 0653ms total)
T2918 001:228 JLINK_ReadMem (0x40021018, 0x0004 Bytes, ...) -- CPU_ReadMem(4 bytes @ 0x40021018) - Data: 00 00 00 00  returns 0x00 (0000ms, 0653ms total)
T2918 001:228 JLINK_ReadMem (0x4002100C, 0x0004 Bytes, ...) -- CPU_ReadMem(4 bytes @ 0x4002100C) - Data: 00 00 00 00  returns 0x00 (0001ms, 0654ms total)
T2918 001:318 JLINK_ReadMem (0x40010000, 0x0004 Bytes, ...) -- CPU_ReadMem(4 bytes @ 0x40010000) - Data: 00 00 00 00  returns 0x00 (0001ms, 0655ms total)
T2918 001:328 JLINK_ReadMem (0x40000400, 0x0004 Bytes, ...) -- CPU_ReadMem(4 bytes @ 0x40000400) - Data: 00 00 00 00  returns 0x00 (0000ms, 0655ms total)
T2918 001:328 JLINK_ReadMem (0x40000404, 0x0004 Bytes, ...) -- CPU_ReadMem(4 bytes @ 0x40000404) - Data: 00 00 00 00  returns 0x00 (0001ms, 0656ms total)
T2918 001:329 JLINK_ReadMem (0x40000408, 0x0004 Bytes, ...) -- CPU_ReadMem(4 bytes @ 0x40000408) - Data: 00 00 00 00  returns 0x00 (0001ms, 0657ms total)
T2918 001:330 JLINK_ReadMem (0x4000040C, 0x0004 Bytes, ...) -- CPU_ReadMem(4 bytes @ 0x4000040C) - Data: 00 00 00 00  returns 0x00 (0000ms, 0657ms total)
T2918 001:330 JLINK_ReadMem (0x40000410, 0x0004 Bytes, ...) -- CPU_ReadMem(4 bytes @ 0x40000410) - Data: 00 00 00 00  returns 0x00 (0001ms, 0658ms total)
T2918 001:331 JLINK_ReadMem (0x40000414, 0x0004 Bytes, ...) -- CPU_ReadMem(4 bytes @ 0x40000414) - Data: 00 00 00 00  returns 0x00 (0000ms, 0658ms total)
T2918 001:331 JLINK_ReadMem (0x40000418, 0x0004 Bytes, ...) -- CPU_ReadMem(4 bytes @ 0x40000418) - Data: 00 00 00 00  returns 0x00 (0001ms, 0659ms total)
T2918 001:332 JLINK_ReadMem (0x4000041C, 0x0004 Bytes, ...) -- CPU_ReadMem(4 bytes @ 0x4000041C) - Data: 00 00 00 00  returns 0x00 (0000ms, 0659ms total)
T2918 001:332 JLINK_ReadMem (0x40000420, 0x0004 Bytes, ...) -- CPU_ReadMem(4 bytes @ 0x40000420) - Data: 00 00 00 00  returns 0x00 (0001ms, 0660ms total)
T2918 001:333 JLINK_ReadMem (0x40000424, 0x0004 Bytes, ...) -- CPU_ReadMem(4 bytes @ 0x40000424) - Data: 00 00 00 00  returns 0x00 (0000ms, 0660ms total)
T2918 001:333 JLINK_ReadMem (0x40000428, 0x0004 Bytes, ...) -- CPU_ReadMem(4 bytes @ 0x40000428) - Data: 00 00 00 00  returns 0x00 (0001ms, 0661ms total)
T2918 001:334 JLINK_ReadMem (0x4000042C, 0x0004 Bytes, ...) -- CPU_ReadMem(4 bytes @ 0x4000042C) - Data: 00 00 00 00  returns 0x00 (0000ms, 0661ms total)
T2918 001:334 JLINK_ReadMem (0x40000430, 0x0004 Bytes, ...) -- CPU_ReadMem(4 bytes @ 0x40000430) - Data: 00 00 00 00  returns 0x00 (0001ms, 0662ms total)
T2918 001:335 JLINK_ReadMem (0x40000434, 0x0004 Bytes, ...) -- CPU_ReadMem(4 bytes @ 0x40000434) - Data: 00 00 00 00  returns 0x00 (0000ms, 0662ms total)
T2918 001:335 JLINK_ReadMem (0x40000438, 0x0004 Bytes, ...) -- CPU_ReadMem(4 bytes @ 0x40000438) - Data: 00 00 00 00  returns 0x00 (0001ms, 0663ms total)
T2918 001:336 JLINK_ReadMem (0x4000043C, 0x0004 Bytes, ...) -- CPU_ReadMem(4 bytes @ 0x4000043C) - Data: 00 00 00 00  returns 0x00 (0000ms, 0663ms total)
T2918 001:336 JLINK_ReadMem (0x40000440, 0x0004 Bytes, ...) -- CPU_ReadMem(4 bytes @ 0x40000440) - Data: 00 00 00 00  returns 0x00 (0001ms, 0664ms total)
T2918 001:337 JLINK_ReadMem (0x40000444, 0x0004 Bytes, ...) -- CPU_ReadMem(4 bytes @ 0x40000444) - Data: 00 00 00 00  returns 0x00 (0000ms, 0664ms total)
T2918 001:337 JLINK_ReadMem (0x40000448, 0x0004 Bytes, ...) -- CPU_ReadMem(4 bytes @ 0x40000448) - Data: 00 00 00 00  returns 0x00 (0001ms, 0665ms total)
T2918 001:338 JLINK_ReadMem (0x4000044C, 0x0004 Bytes, ...) -- CPU_ReadMem(4 bytes @ 0x4000044C) - Data: 00 00 00 00  returns 0x00 (0001ms, 0666ms total)
T2918 001:339 JLINK_ReadMem (0x40021000, 0x0004 Bytes, ...) -- CPU_ReadMem(4 bytes @ 0x40021000) - Data: 83 4A 00 00  returns 0x00 (0000ms, 0666ms total)
T2918 001:339 JLINK_ReadMem (0x40021004, 0x0004 Bytes, ...) -- CPU_ReadMem(4 bytes @ 0x40021004) - Data: 00 00 00 00  returns 0x00 (0001ms, 0667ms total)
T2918 001:340 JLINK_ReadMem (0x40021020, 0x0004 Bytes, ...) -- CPU_ReadMem(4 bytes @ 0x40021020) - Data: 00 00 00 00  returns 0x00 (0000ms, 0667ms total)
T2918 001:347 JLINK_ReadMem (0x4002101C, 0x0004 Bytes, ...) -- CPU_ReadMem(4 bytes @ 0x4002101C) - Data: 00 00 00 00  returns 0x00 (0000ms, 0667ms total)
T2918 001:347 JLINK_ReadMem (0x40021010, 0x0004 Bytes, ...) -- CPU_ReadMem(4 bytes @ 0x40021010) - Data: 00 00 00 00  returns 0x00 (0001ms, 0668ms total)
T2918 001:409 JLINK_ReadMem (0x40000400, 0x0004 Bytes, ...) -- CPU_ReadMem(4 bytes @ 0x40000400) - Data: 00 00 00 00  returns 0x00 (0001ms, 0669ms total)
T2918 002:108 JLINK_ReadMem (0x00000000, 0x0030 Bytes, ...) -- CPU_ReadMem(4 bytes @ 0x00000004) -- CPU_ReadMem(64 bytes @ 0x08000000) -- Updating C cache (64 bytes @ 0x08000000) -- Read from C cache (48 bytes @ 0x08000000) - Data: 78 04 00 20 89 01 00 08 8D 01 00 08 8F 01 00 08 ...  returns 0x00 (0002ms, 0671ms total)
T3FF8 002:607 JLINK_SetBPEx(Addr = 0x08000570, Type = 0xFFFFFFF2)  returns 0x00000001 (0000ms, 0671ms total)
T3FF8 002:607 JLINK_Go() -- CPU_WriteMem(4 bytes @ 0xE0002008) -- CPU_WriteMem(4 bytes @ 0xE000200C) -- CPU_WriteMem(4 bytes @ 0xE0002010) -- CPU_WriteMem(4 bytes @ 0xE0002014) -- CPU_WriteMem(4 bytes @ 0xE0002018) -- CPU_WriteMem(4 bytes @ 0xE000201C) -- CPU_WriteMem(4 bytes @ 0xE0001004) (0005ms, 0676ms total)
T3FF8 002:712 JLINK_IsHalted()  returns TRUE (0001ms, 0677ms total)
T3FF8 002:713 JLINK_Halt()  returns 0x00 (0000ms, 0676ms total)
T3FF8 002:713 JLINK_IsHalted()  returns TRUE (0000ms, 0676ms total)
T3FF8 002:714 JLINK_IsHalted()  returns TRUE (0000ms, 0676ms total)
T3FF8 002:714 JLINK_IsHalted()  returns TRUE (0000ms, 0676ms total)
T3FF8 002:714 JLINK_ReadReg(R15 (PC))  returns 0x08000570 (0000ms, 0676ms total)
T3FF8 002:714 JLINK_ReadReg(XPSR)  returns 0x21000000 (0000ms, 0676ms total)
T3FF8 002:714 JLINK_ClrBPEx(BPHandle = 0x00000001)  returns 0x00 (0000ms, 0676ms total)
T3FF8 002:714 JLINK_ReadMemU32(0xE000ED30, 0x0001 Items, ...) -- CPU_ReadMem(4 bytes @ 0xE000ED30) - Data: 03 00 00 00  returns 0x01 (0000ms, 0676ms total)
T3FF8 002:714 JLINK_ReadMemU32(0xE0001028, 0x0001 Items, ...) -- CPU_ReadMem(4 bytes @ 0xE0001028) - Data: 00 00 00 00  returns 0x01 (0001ms, 0677ms total)
T3FF8 002:715 JLINK_ReadMemU32(0xE0001038, 0x0001 Items, ...) -- CPU_ReadMem(4 bytes @ 0xE0001038) - Data: 00 02 00 00  returns 0x01 (0001ms, 0678ms total)
T3FF8 002:716 JLINK_ReadMemU32(0xE0001048, 0x0001 Items, ...) -- CPU_ReadMem(4 bytes @ 0xE0001048) - Data: 00 00 00 00  returns 0x01 (0000ms, 0678ms total)
T3FF8 002:716 JLINK_ReadMemU32(0xE0001058, 0x0001 Items, ...) -- CPU_ReadMem(4 bytes @ 0xE0001058) - Data: 00 00 00 00  returns 0x01 (0001ms, 0679ms total)
T3FF8 002:717 JLINK_ReadReg(R0)  returns 0x20000078 (0000ms, 0679ms total)
T3FF8 002:717 JLINK_ReadReg(R1)  returns 0x20000078 (0000ms, 0679ms total)
T3FF8 002:717 JLINK_ReadReg(R2)  returns 0x20000078 (0000ms, 0679ms total)
T3FF8 002:717 JLINK_ReadReg(R3)  returns 0x20000078 (0000ms, 0679ms total)
T3FF8 002:717 JLINK_ReadReg(R4)  returns 0x00000000 (0000ms, 0679ms total)
T3FF8 002:717 JLINK_ReadReg(R5)  returns 0x20000014 (0000ms, 0679ms total)
T3FF8 002:717 JLINK_ReadReg(R6)  returns 0x00000000 (0001ms, 0680ms total)
T3FF8 002:718 JLINK_ReadReg(R7)  returns 0x00000000 (0000ms, 0680ms total)
T3FF8 002:718 JLINK_ReadReg(R8)  returns 0x00000000 (0000ms, 0680ms total)
T3FF8 002:718 JLINK_ReadReg(R9)  returns 0x20000160 (0000ms, 0680ms total)
T3FF8 002:718 JLINK_ReadReg(R10)  returns 0x0800061C (0000ms, 0680ms total)
T3FF8 002:718 JLINK_ReadReg(R11)  returns 0x00000000 (0000ms, 0680ms total)
T3FF8 002:718 JLINK_ReadReg(R12)  returns 0x20000054 (0000ms, 0680ms total)
T3FF8 002:718 JLINK_ReadReg(R13 (SP))  returns 0x20000478 (0000ms, 0680ms total)
T3FF8 002:718 JLINK_ReadReg(R14)  returns 0x08000177 (0000ms, 0680ms total)
T3FF8 002:718 JLINK_ReadReg(R15 (PC))  returns 0x08000570 (0000ms, 0680ms total)
T3FF8 002:718 JLINK_ReadReg(XPSR)  returns 0x21000000 (0000ms, 0680ms total)
T3FF8 002:718 JLINK_ReadReg(MSP)  returns 0x20000478 (0000ms, 0680ms total)
T3FF8 002:718 JLINK_ReadReg(PSP)  returns 0x20000800 (0000ms, 0680ms total)
T3FF8 002:718 JLINK_ReadReg(CFBP)  returns 0x00000000 (0000ms, 0680ms total)
T2918 002:722 JLINK_ReadMemU32(0xE0001004, 0x0001 Items, ...) -- CPU_ReadMem(4 bytes @ 0xE0001004) - Data: E6 02 00 00  returns 0x01 (0001ms, 0681ms total)
T2918 002:724 JLINK_ReadMem (0x4002101C, 0x0004 Bytes, ...) -- CPU_ReadMem(4 bytes @ 0x4002101C) - Data: 00 00 00 00  returns 0x00 (0001ms, 0682ms total)
T2918 002:725 JLINK_ReadMem (0x40021010, 0x0004 Bytes, ...) -- CPU_ReadMem(4 bytes @ 0x40021010) - Data: 00 00 00 00  returns 0x00 (0001ms, 0683ms total)
T2918 002:726 JLINK_ReadMem (0x40021014, 0x0004 Bytes, ...) -- CPU_ReadMem(4 bytes @ 0x40021014) - Data: 14 00 00 00  returns 0x00 (0000ms, 0683ms total)
T2918 002:726 JLINK_ReadMem (0x40021018, 0x0004 Bytes, ...) -- CPU_ReadMem(4 bytes @ 0x40021018) - Data: 00 00 00 00  returns 0x00 (0001ms, 0684ms total)
T2918 002:727 JLINK_ReadMem (0x4002100C, 0x0004 Bytes, ...) -- CPU_ReadMem(4 bytes @ 0x4002100C) - Data: 00 00 00 00  returns 0x00 (0001ms, 0685ms total)
T2918 002:728 JLINK_ReadMem (0x40021014, 0x0004 Bytes, ...) -- CPU_ReadMem(4 bytes @ 0x40021014) - Data: 14 00 00 00  returns 0x00 (0000ms, 0685ms total)
T2918 002:728 JLINK_ReadMem (0x40010C00, 0x0004 Bytes, ...) -- CPU_ReadMem(4 bytes @ 0x40010C00) - Data: 44 44 48 44  returns 0x00 (0001ms, 0686ms total)
T2918 002:729 JLINK_ReadMem (0x40010C04, 0x0004 Bytes, ...) -- CPU_ReadMem(4 bytes @ 0x40010C04) - Data: 44 44 44 44  returns 0x00 (0001ms, 0687ms total)
T2918 002:730 JLINK_ReadMem (0x40010C08, 0x0004 Bytes, ...) -- CPU_ReadMem(4 bytes @ 0x40010C08) - Data: 00 00 00 00  returns 0x00 (0000ms, 0687ms total)
T2918 002:730 JLINK_ReadMem (0x40010C0C, 0x0004 Bytes, ...) -- CPU_ReadMem(4 bytes @ 0x40010C0C) - Data: 10 00 00 00  returns 0x00 (0001ms, 0688ms total)
T2918 002:731 JLINK_ReadMem (0x40010C10, 0x0004 Bytes, ...) -- CPU_ReadMem(4 bytes @ 0x40010C10) - Data: 00 00 00 00  returns 0x00 (0000ms, 0688ms total)
T2918 002:731 JLINK_ReadMem (0x40010C14, 0x0004 Bytes, ...) -- CPU_ReadMem(4 bytes @ 0x40010C14) - Data: 00 00 00 00  returns 0x00 (0001ms, 0689ms total)
T2918 002:732 JLINK_ReadMem (0x40010C18, 0x0004 Bytes, ...) -- CPU_ReadMem(4 bytes @ 0x40010C18) - Data: 00 00 00 00  returns 0x00 (0000ms, 0689ms total)
T2918 002:732 JLINK_ReadMem (0x40021018, 0x0004 Bytes, ...) -- CPU_ReadMem(4 bytes @ 0x40021018) - Data: 00 00 00 00  returns 0x00 (0001ms, 0690ms total)
T2918 002:733 JLINK_ReadMem (0x4002100C, 0x0004 Bytes, ...) -- CPU_ReadMem(4 bytes @ 0x4002100C) - Data: 00 00 00 00  returns 0x00 (0001ms, 0691ms total)
T2918 002:734 JLINK_ReadMem (0x40010000, 0x0004 Bytes, ...) -- CPU_ReadMem(4 bytes @ 0x40010000) - Data: 00 00 00 00  returns 0x00 (0000ms, 0691ms total)
T2918 002:734 JLINK_ReadMem (0x40010004, 0x0004 Bytes, ...) -- CPU_ReadMem(4 bytes @ 0x40010004) - Data: 00 00 00 00  returns 0x00 (0001ms, 0692ms total)
T2918 002:735 JLINK_ReadMem (0x40010008, 0x0004 Bytes, ...) -- CPU_ReadMem(4 bytes @ 0x40010008) - Data: 00 00 00 00  returns 0x00 (0000ms, 0692ms total)
T2918 002:735 JLINK_ReadMem (0x4001000C, 0x0004 Bytes, ...) -- CPU_ReadMem(4 bytes @ 0x4001000C) - Data: 00 00 00 00  returns 0x00 (0001ms, 0693ms total)
T2918 002:736 JLINK_ReadMem (0x40010010, 0x0004 Bytes, ...) -- CPU_ReadMem(4 bytes @ 0x40010010) - Data: 00 00 00 00  returns 0x00 (0001ms, 0694ms total)
T2918 002:737 JLINK_ReadMem (0x40010014, 0x0004 Bytes, ...) -- CPU_ReadMem(4 bytes @ 0x40010014) - Data: 00 00 00 00  returns 0x00 (0000ms, 0694ms total)
T2918 002:741 JLINK_ReadMem (0x40021018, 0x0004 Bytes, ...) -- CPU_ReadMem(4 bytes @ 0x40021018) - Data: 00 00 00 00  returns 0x00 (0001ms, 0695ms total)
T2918 002:742 JLINK_ReadMem (0x4002100C, 0x0004 Bytes, ...) -- CPU_ReadMem(4 bytes @ 0x4002100C) - Data: 00 00 00 00  returns 0x00 (0001ms, 0696ms total)
T2918 002:743 JLINK_ReadMem (0x40000400, 0x0004 Bytes, ...) -- CPU_ReadMem(4 bytes @ 0x40000400) - Data: 00 00 00 00  returns 0x00 (0000ms, 0696ms total)
T2918 002:743 JLINK_ReadMem (0x40000404, 0x0004 Bytes, ...) -- CPU_ReadMem(4 bytes @ 0x40000404) - Data: 00 00 00 00  returns 0x00 (0001ms, 0697ms total)
T2918 002:744 JLINK_ReadMem (0x40000408, 0x0004 Bytes, ...) -- CPU_ReadMem(4 bytes @ 0x40000408) - Data: 00 00 00 00  returns 0x00 (0000ms, 0697ms total)
T2918 002:744 JLINK_ReadMem (0x4000040C, 0x0004 Bytes, ...) -- CPU_ReadMem(4 bytes @ 0x4000040C) - Data: 00 00 00 00  returns 0x00 (0001ms, 0698ms total)
T2918 002:745 JLINK_ReadMem (0x40000410, 0x0004 Bytes, ...) -- CPU_ReadMem(4 bytes @ 0x40000410) - Data: 00 00 00 00  returns 0x00 (0000ms, 0698ms total)
T2918 002:745 JLINK_ReadMem (0x40000414, 0x0004 Bytes, ...) -- CPU_ReadMem(4 bytes @ 0x40000414) - Data: 00 00 00 00  returns 0x00 (0001ms, 0699ms total)
T2918 002:746 JLINK_ReadMem (0x40000418, 0x0004 Bytes, ...) -- CPU_ReadMem(4 bytes @ 0x40000418) - Data: 00 00 00 00  returns 0x00 (0000ms, 0699ms total)
T2918 002:746 JLINK_ReadMem (0x4000041C, 0x0004 Bytes, ...) -- CPU_ReadMem(4 bytes @ 0x4000041C) - Data: 00 00 00 00  returns 0x00 (0001ms, 0700ms total)
T2918 002:747 JLINK_ReadMem (0x40000420, 0x0004 Bytes, ...) -- CPU_ReadMem(4 bytes @ 0x40000420) - Data: 00 00 00 00  returns 0x00 (0000ms, 0700ms total)
T2918 002:747 JLINK_ReadMem (0x40000424, 0x0004 Bytes, ...) -- CPU_ReadMem(4 bytes @ 0x40000424) - Data: 00 00 00 00  returns 0x00 (0001ms, 0701ms total)
T2918 002:748 JLINK_ReadMem (0x40000428, 0x0004 Bytes, ...) -- CPU_ReadMem(4 bytes @ 0x40000428) - Data: 00 00 00 00  returns 0x00 (0001ms, 0702ms total)
T2918 002:749 JLINK_ReadMem (0x4000042C, 0x0004 Bytes, ...) -- CPU_ReadMem(4 bytes @ 0x4000042C) - Data: 00 00 00 00  returns 0x00 (0000ms, 0702ms total)
T2918 002:749 JLINK_ReadMem (0x40000430, 0x0004 Bytes, ...) -- CPU_ReadMem(4 bytes @ 0x40000430) - Data: 00 00 00 00  returns 0x00 (0001ms, 0703ms total)
T2918 002:750 JLINK_ReadMem (0x40000434, 0x0004 Bytes, ...) -- CPU_ReadMem(4 bytes @ 0x40000434) - Data: 00 00 00 00  returns 0x00 (0001ms, 0704ms total)
T2918 002:751 JLINK_ReadMem (0x40000438, 0x0004 Bytes, ...) -- CPU_ReadMem(4 bytes @ 0x40000438) - Data: 00 00 00 00  returns 0x00 (0000ms, 0704ms total)
T2918 002:751 JLINK_ReadMem (0x4000043C, 0x0004 Bytes, ...) -- CPU_ReadMem(4 bytes @ 0x4000043C) - Data: 00 00 00 00  returns 0x00 (0001ms, 0705ms total)
T2918 002:752 JLINK_ReadMem (0x40000440, 0x0004 Bytes, ...) -- CPU_ReadMem(4 bytes @ 0x40000440) - Data: 00 00 00 00  returns 0x00 (0000ms, 0705ms total)
T2918 002:752 JLINK_ReadMem (0x40000444, 0x0004 Bytes, ...) -- CPU_ReadMem(4 bytes @ 0x40000444) - Data: 00 00 00 00  returns 0x00 (0001ms, 0706ms total)
T2918 002:753 JLINK_ReadMem (0x40000448, 0x0004 Bytes, ...) -- CPU_ReadMem(4 bytes @ 0x40000448) - Data: 00 00 00 00  returns 0x00 (0001ms, 0707ms total)
T2918 002:754 JLINK_ReadMem (0x4000044C, 0x0004 Bytes, ...) -- CPU_ReadMem(4 bytes @ 0x4000044C) - Data: 00 00 00 00  returns 0x00 (0000ms, 0707ms total)
T2918 002:754 JLINK_ReadMem (0x40021000, 0x0004 Bytes, ...) -- CPU_ReadMem(4 bytes @ 0x40021000) - Data: 83 4A 00 00  returns 0x00 (0001ms, 0708ms total)
T2918 002:755 JLINK_ReadMem (0x40021004, 0x0004 Bytes, ...) -- CPU_ReadMem(4 bytes @ 0x40021004) - Data: 00 00 00 00  returns 0x00 (0000ms, 0708ms total)
T2918 002:755 JLINK_ReadMem (0x40021020, 0x0004 Bytes, ...) -- CPU_ReadMem(4 bytes @ 0x40021020) - Data: 00 00 00 00  returns 0x00 (0001ms, 0709ms total)
T2918 002:756 JLINK_ReadMem (0x4002101C, 0x0004 Bytes, ...) -- CPU_ReadMem(4 bytes @ 0x4002101C) - Data: 00 00 00 00  returns 0x00 (0001ms, 0710ms total)
T2918 002:757 JLINK_ReadMem (0x40021010, 0x0004 Bytes, ...) -- CPU_ReadMem(4 bytes @ 0x40021010) - Data: 00 00 00 00  returns 0x00 (0000ms, 0710ms total)
T2918 002:758 JLINK_ReadMem (0x0800056E, 0x0002 Bytes, ...) -- CPU_ReadMem(64 bytes @ 0x08000540) -- Updating C cache (64 bytes @ 0x08000540) -- Read from C cache (2 bytes @ 0x0800056E) - Data: 70 47  returns 0x00 (0000ms, 0710ms total)
T2918 002:758 JLINK_ReadMem (0x08000570, 0x003C Bytes, ...) -- CPU_ReadMem(64 bytes @ 0x08000580) -- Updating C cache (64 bytes @ 0x08000580) -- Read from C cache (60 bytes @ 0x08000570) - Data: FF F7 73 FF 00 BF FE E7 10 2C 01 40 04 00 00 20 ...  returns 0x00 (0001ms, 0711ms total)
T2918 004:050 JLINK_ReadMem (0x40000400, 0x0004 Bytes, ...) -- CPU_ReadMem(4 bytes @ 0x40000400) - Data: 00 00 00 00  returns 0x00 (0001ms, 0712ms total)
T2918 004:756 JLINK_ReadMem (0x40010000, 0x0004 Bytes, ...) -- CPU_ReadMem(4 bytes @ 0x40010000) - Data: 00 00 00 00  returns 0x00 (0000ms, 0712ms total)
T2918 004:853 JLINK_SetResetType(JLINKARM_RESET_TYPE_NORMAL)  returns JLINKARM_RESET_TYPE_NORMAL (0000ms, 0712ms total)
T2918 004:853 JLINK_Reset() -- CPU_WriteMem(4 bytes @ 0xE000EDF0) -- CPU_WriteMem(4 bytes @ 0xE000EDFC) -- CPU_WriteMem(4 bytes @ 0xE000ED0C) -- CPU_ReadMem(4 bytes @ 0xE000EDF0) -- CPU_ReadMem(4 bytes @ 0xE000EDF0) -- CPU_WriteMem(4 bytes @ 0xE000EDF0) -- CPU_WriteMem(4 bytes @ 0xE000EDFC) -- CPU is running -- CPU_ReadMem(4 bytes @ 0xE000EDF0) >0x80 JTAG> >0x40 JTAG> >0x30 JTAG> >0x40 JTAG> >0x50 JTAG> >0x40 JTAG> -- CPU_WriteMem(4 bytes @ 0xE000EDFC) -- CPU_WriteMem(4 bytes @ 0xE0001028)
 -- CPU_WriteMem(4 bytes @ 0xE0001038) -- CPU_WriteMem(4 bytes @ 0xE0001048) -- CPU_WriteMem(4 bytes @ 0xE0001058) -- CPU_WriteMem(4 bytes @ 0xE0002000) -- CPU_ReadMem(4 bytes @ 0xE000EDFC) -- CPU_ReadMem(4 bytes @ 0xE0001000) (0025ms, 0737ms total)
T2918 004:878 JLINK_ReadReg(R15 (PC))  returns 0x08000188 (0000ms, 0737ms total)
T2918 004:878 JLINK_ReadReg(XPSR)  returns 0x01000000 (0000ms, 0737ms total)
T2918 004:878 JLINK_ReadMemU32(0xE0001004, 0x0001 Items, ...) -- CPU_ReadMem(4 bytes @ 0xE0001004) - Data: 1F 05 00 00  returns 0x01 (0001ms, 0738ms total)
T2918 004:879 JLINK_ReadMem (0x080000EC, 0x003C Bytes, ...) -- CPU_ReadMem(128 bytes @ 0x080000C0) -- Updating C cache (128 bytes @ 0x080000C0) -- Read from C cache (60 bytes @ 0x080000EC) - Data: 00 F0 02 F8 00 F0 3A F8 0A A0 90 E8 00 0C 82 44 ...  returns 0x00 (0001ms, 0739ms total)
T2918 004:880 JLINK_ReadMem (0x08000128, 0x003C Bytes, ...) -- CPU_ReadMem(64 bytes @ 0x08000140) -- Updating C cache (64 bytes @ 0x08000140) -- Read from C cache (60 bytes @ 0x08000128) - Data: 10 3A 24 BF 78 C8 78 C1 FA D8 52 07 24 BF 30 C8 ...  returns 0x00 (0000ms, 0739ms total)
T2918 004:880 JLINK_ReadMem (0x08000164, 0x003C Bytes, ...) -- CPU_ReadMem(64 bytes @ 0x08000180) -- Updating C cache (64 bytes @ 0x08000180) -- Read from C cache (60 bytes @ 0x08000164) - Data: 10 B5 10 BD 00 F0 11 FA 11 46 FF F7 F7 FF 00 F0 ...  returns 0x00 (0001ms, 0740ms total)
T2918 004:930 JLINK_ReadMem (0x4002101C, 0x0004 Bytes, ...) -- CPU_ReadMem(4 bytes @ 0x4002101C) - Data: 00 00 00 00  returns 0x00 (0000ms, 0740ms total)
T2918 004:930 JLINK_ReadMem (0x40021010, 0x0004 Bytes, ...) -- CPU_ReadMem(4 bytes @ 0x40021010) - Data: 00 00 00 00  returns 0x00 (0001ms, 0741ms total)
T2918 004:931 JLINK_ReadMem (0x40021014, 0x0004 Bytes, ...) -- CPU_ReadMem(4 bytes @ 0x40021014) - Data: 14 00 00 00  returns 0x00 (0001ms, 0742ms total)
T2918 004:932 JLINK_ReadMem (0x40021018, 0x0004 Bytes, ...) -- CPU_ReadMem(4 bytes @ 0x40021018) - Data: 00 00 00 00  returns 0x00 (0000ms, 0742ms total)
T2918 004:932 JLINK_ReadMem (0x4002100C, 0x0004 Bytes, ...) -- CPU_ReadMem(4 bytes @ 0x4002100C) - Data: 00 00 00 00  returns 0x00 (0001ms, 0743ms total)
T2918 004:933 JLINK_ReadMem (0x40021014, 0x0004 Bytes, ...) -- CPU_ReadMem(4 bytes @ 0x40021014) - Data: 14 00 00 00  returns 0x00 (0000ms, 0743ms total)
T2918 004:933 JLINK_ReadMem (0x40010C00, 0x0004 Bytes, ...) -- CPU_ReadMem(4 bytes @ 0x40010C00) - Data: 44 44 48 44  returns 0x00 (0001ms, 0744ms total)
T2918 004:934 JLINK_ReadMem (0x40010C04, 0x0004 Bytes, ...) -- CPU_ReadMem(4 bytes @ 0x40010C04) - Data: 44 44 44 44  returns 0x00 (0001ms, 0745ms total)
T2918 004:935 JLINK_ReadMem (0x40010C08, 0x0004 Bytes, ...) -- CPU_ReadMem(4 bytes @ 0x40010C08) - Data: 00 00 00 00  returns 0x00 (0000ms, 0745ms total)
T2918 004:935 JLINK_ReadMem (0x40010C0C, 0x0004 Bytes, ...) -- CPU_ReadMem(4 bytes @ 0x40010C0C) - Data: 10 00 00 00  returns 0x00 (0001ms, 0746ms total)
T2918 004:936 JLINK_ReadMem (0x40010C10, 0x0004 Bytes, ...) -- CPU_ReadMem(4 bytes @ 0x40010C10) - Data: 00 00 00 00  returns 0x00 (0000ms, 0746ms total)
T2918 004:936 JLINK_ReadMem (0x40010C14, 0x0004 Bytes, ...) -- CPU_ReadMem(4 bytes @ 0x40010C14) - Data: 00 00 00 00  returns 0x00 (0001ms, 0747ms total)
T2918 004:937 JLINK_ReadMem (0x40010C18, 0x0004 Bytes, ...) -- CPU_ReadMem(4 bytes @ 0x40010C18) - Data: 00 00 00 00  returns 0x00 (0000ms, 0747ms total)
T2918 004:937 JLINK_ReadMem (0x40021018, 0x0004 Bytes, ...) -- CPU_ReadMem(4 bytes @ 0x40021018) - Data: 00 00 00 00  returns 0x00 (0001ms, 0748ms total)
T2918 004:938 JLINK_ReadMem (0x4002100C, 0x0004 Bytes, ...) -- CPU_ReadMem(4 bytes @ 0x4002100C) - Data: 00 00 00 00  returns 0x00 (0000ms, 0748ms total)
T2918 004:938 JLINK_ReadMem (0x40010000, 0x0004 Bytes, ...) -- CPU_ReadMem(4 bytes @ 0x40010000) - Data: 00 00 00 00  returns 0x00 (0001ms, 0749ms total)
T2918 004:939 JLINK_ReadMem (0x40010004, 0x0004 Bytes, ...) -- CPU_ReadMem(4 bytes @ 0x40010004) - Data: 00 00 00 00  returns 0x00 (0001ms, 0750ms total)
T2918 004:940 JLINK_ReadMem (0x40010008, 0x0004 Bytes, ...) -- CPU_ReadMem(4 bytes @ 0x40010008) - Data: 00 00 00 00  returns 0x00 (0000ms, 0750ms total)
T2918 004:940 JLINK_ReadMem (0x4001000C, 0x0004 Bytes, ...) -- CPU_ReadMem(4 bytes @ 0x4001000C) - Data: 00 00 00 00  returns 0x00 (0001ms, 0751ms total)
T2918 004:941 JLINK_ReadMem (0x40010010, 0x0004 Bytes, ...) -- CPU_ReadMem(4 bytes @ 0x40010010) - Data: 00 00 00 00  returns 0x00 (0000ms, 0751ms total)
T2918 004:941 JLINK_ReadMem (0x40010014, 0x0004 Bytes, ...) -- CPU_ReadMem(4 bytes @ 0x40010014) - Data: 00 00 00 00  returns 0x00 (0001ms, 0752ms total)
T2918 004:946 JLINK_ReadMem (0x40021018, 0x0004 Bytes, ...) -- CPU_ReadMem(4 bytes @ 0x40021018) - Data: 00 00 00 00  returns 0x00 (0000ms, 0752ms total)
T2918 004:946 JLINK_ReadMem (0x4002100C, 0x0004 Bytes, ...) -- CPU_ReadMem(4 bytes @ 0x4002100C) - Data: 00 00 00 00  returns 0x00 (0001ms, 0753ms total)
T2918 004:947 JLINK_ReadMem (0x40000400, 0x0004 Bytes, ...) -- CPU_ReadMem(4 bytes @ 0x40000400) - Data: 00 00 00 00  returns 0x00 (0001ms, 0754ms total)
T2918 004:948 JLINK_ReadMem (0x40000404, 0x0004 Bytes, ...) -- CPU_ReadMem(4 bytes @ 0x40000404) - Data: 00 00 00 00  returns 0x00 (0000ms, 0754ms total)
T2918 004:948 JLINK_ReadMem (0x40000408, 0x0004 Bytes, ...) -- CPU_ReadMem(4 bytes @ 0x40000408) - Data: 00 00 00 00  returns 0x00 (0001ms, 0755ms total)
T2918 004:949 JLINK_ReadMem (0x4000040C, 0x0004 Bytes, ...) -- CPU_ReadMem(4 bytes @ 0x4000040C) - Data: 00 00 00 00  returns 0x00 (0000ms, 0755ms total)
T2918 004:949 JLINK_ReadMem (0x40000410, 0x0004 Bytes, ...) -- CPU_ReadMem(4 bytes @ 0x40000410) - Data: 00 00 00 00  returns 0x00 (0001ms, 0756ms total)
T2918 004:950 JLINK_ReadMem (0x40000414, 0x0004 Bytes, ...) -- CPU_ReadMem(4 bytes @ 0x40000414) - Data: 00 00 00 00  returns 0x00 (0001ms, 0757ms total)
T2918 004:951 JLINK_ReadMem (0x40000418, 0x0004 Bytes, ...) -- CPU_ReadMem(4 bytes @ 0x40000418) - Data: 00 00 00 00  returns 0x00 (0000ms, 0757ms total)
T2918 004:951 JLINK_ReadMem (0x4000041C, 0x0004 Bytes, ...) -- CPU_ReadMem(4 bytes @ 0x4000041C) - Data: 00 00 00 00  returns 0x00 (0001ms, 0758ms total)
T2918 004:952 JLINK_ReadMem (0x40000420, 0x0004 Bytes, ...) -- CPU_ReadMem(4 bytes @ 0x40000420) - Data: 00 00 00 00  returns 0x00 (0000ms, 0758ms total)
T2918 004:952 JLINK_ReadMem (0x40000424, 0x0004 Bytes, ...) -- CPU_ReadMem(4 bytes @ 0x40000424) - Data: 00 00 00 00  returns 0x00 (0001ms, 0759ms total)
T2918 004:953 JLINK_ReadMem (0x40000428, 0x0004 Bytes, ...) -- CPU_ReadMem(4 bytes @ 0x40000428) - Data: 00 00 00 00  returns 0x00 (0000ms, 0759ms total)
T2918 004:953 JLINK_ReadMem (0x4000042C, 0x0004 Bytes, ...) -- CPU_ReadMem(4 bytes @ 0x4000042C) - Data: 00 00 00 00  returns 0x00 (0001ms, 0760ms total)
T2918 004:954 JLINK_ReadMem (0x40000430, 0x0004 Bytes, ...) -- CPU_ReadMem(4 bytes @ 0x40000430) - Data: 00 00 00 00  returns 0x00 (0000ms, 0760ms total)
T2918 004:954 JLINK_ReadMem (0x40000434, 0x0004 Bytes, ...) -- CPU_ReadMem(4 bytes @ 0x40000434) - Data: 00 00 00 00  returns 0x00 (0001ms, 0761ms total)
T2918 004:955 JLINK_ReadMem (0x40000438, 0x0004 Bytes, ...) -- CPU_ReadMem(4 bytes @ 0x40000438) - Data: 00 00 00 00  returns 0x00 (0000ms, 0761ms total)
T2918 004:955 JLINK_ReadMem (0x4000043C, 0x0004 Bytes, ...) -- CPU_ReadMem(4 bytes @ 0x4000043C) - Data: 00 00 00 00  returns 0x00 (0001ms, 0762ms total)
T2918 004:956 JLINK_ReadMem (0x40000440, 0x0004 Bytes, ...) -- CPU_ReadMem(4 bytes @ 0x40000440) - Data: 00 00 00 00  returns 0x00 (0000ms, 0762ms total)
T2918 004:956 JLINK_ReadMem (0x40000444, 0x0004 Bytes, ...) -- CPU_ReadMem(4 bytes @ 0x40000444) - Data: 00 00 00 00  returns 0x00 (0001ms, 0763ms total)
T2918 004:957 JLINK_ReadMem (0x40000448, 0x0004 Bytes, ...) -- CPU_ReadMem(4 bytes @ 0x40000448) - Data: 00 00 00 00  returns 0x00 (0001ms, 0764ms total)
T2918 004:958 JLINK_ReadMem (0x4000044C, 0x0004 Bytes, ...) -- CPU_ReadMem(4 bytes @ 0x4000044C) - Data: 00 00 00 00  returns 0x00 (0000ms, 0764ms total)
T2918 004:958 JLINK_ReadMem (0x40021000, 0x0004 Bytes, ...) -- CPU_ReadMem(4 bytes @ 0x40021000) - Data: 83 4A 00 00  returns 0x00 (0001ms, 0765ms total)
T2918 004:959 JLINK_ReadMem (0x40021004, 0x0004 Bytes, ...) -- CPU_ReadMem(4 bytes @ 0x40021004) - Data: 00 00 00 00  returns 0x00 (0000ms, 0765ms total)
T2918 004:959 JLINK_ReadMem (0x40021020, 0x0004 Bytes, ...) -- CPU_ReadMem(4 bytes @ 0x40021020) - Data: 00 00 00 00  returns 0x00 (0001ms, 0766ms total)
T2918 004:960 JLINK_ReadMem (0x4002101C, 0x0004 Bytes, ...) -- CPU_ReadMem(4 bytes @ 0x4002101C) - Data: 00 00 00 00  returns 0x00 (0001ms, 0767ms total)
T2918 004:961 JLINK_ReadMem (0x40021010, 0x0004 Bytes, ...) -- CPU_ReadMem(4 bytes @ 0x40021010) - Data: 00 00 00 00  returns 0x00 (0000ms, 0767ms total)
T3FF8 005:412 JLINK_Go() -- CPU_WriteMem(4 bytes @ 0xE0002008) -- CPU_WriteMem(4 bytes @ 0xE000200C) -- CPU_WriteMem(4 bytes @ 0xE0002010) -- CPU_WriteMem(4 bytes @ 0xE0002014) -- CPU_WriteMem(4 bytes @ 0xE0002018) -- CPU_WriteMem(4 bytes @ 0xE000201C) -- CPU_WriteMem(4 bytes @ 0xE0001004) (0003ms, 0770ms total)
T3FF8 005:515 JLINK_IsHalted()  returns FALSE (0000ms, 0770ms total)
T3FF8 005:615 JLINK_IsHalted()  returns FALSE (0000ms, 0770ms total)
T3FF8 005:715 JLINK_IsHalted()  returns FALSE (0000ms, 0770ms total)
T3FF8 005:815 JLINK_IsHalted()  returns FALSE (0000ms, 0770ms total)
T3FF8 005:915 JLINK_IsHalted()  returns FALSE (0000ms, 0770ms total)
T3FF8 006:015 JLINK_ReadMemU32(0xE0001004, 0x0001 Items, ...) -- CPU is running -- CPU_ReadMem(4 bytes @ 0xE0001004) - Data: A5 81 92 02  returns 0x01 (0000ms, 0770ms total)
T3FF8 006:017 JLINK_IsHalted()  returns FALSE (0000ms, 0770ms total)
T3FF8 006:118 JLINK_Halt()  returns 0x00 (0002ms, 0772ms total)
T3FF8 006:120 JLINK_IsHalted()  returns TRUE (0000ms, 0772ms total)
T3FF8 006:120 JLINK_IsHalted()  returns TRUE (0000ms, 0772ms total)
T3FF8 006:120 JLINK_IsHalted()  returns TRUE (0000ms, 0772ms total)
T3FF8 006:120 JLINK_ReadReg(R15 (PC))  returns 0x08000576 (0000ms, 0772ms total)
T3FF8 006:120 JLINK_ReadReg(XPSR)  returns 0x01000000 (0000ms, 0772ms total)
T3FF8 006:120 JLINK_ReadMemU32(0xE000ED30, 0x0001 Items, ...) -- CPU_ReadMem(4 bytes @ 0xE000ED30) - Data: 01 00 00 00  returns 0x01 (0001ms, 0773ms total)
T3FF8 006:121 JLINK_ReadMemU32(0xE0001028, 0x0001 Items, ...) -- CPU_ReadMem(4 bytes @ 0xE0001028) - Data: 00 00 00 00  returns 0x01 (0001ms, 0774ms total)
T3FF8 006:122 JLINK_ReadMemU32(0xE0001038, 0x0001 Items, ...) -- CPU_ReadMem(4 bytes @ 0xE0001038) - Data: 00 02 00 00  returns 0x01 (0001ms, 0775ms total)
T3FF8 006:123 JLINK_ReadMemU32(0xE0001048, 0x0001 Items, ...) -- CPU_ReadMem(4 bytes @ 0xE0001048) - Data: 00 00 00 00  returns 0x01 (0001ms, 0776ms total)
T3FF8 006:124 JLINK_ReadMemU32(0xE0001058, 0x0001 Items, ...) -- CPU_ReadMem(4 bytes @ 0xE0001058) - Data: 00 00 00 00  returns 0x01 (0000ms, 0776ms total)
T3FF8 006:125 JLINK_ReadReg(R0)  returns 0x0000200C (0000ms, 0776ms total)
T3FF8 006:125 JLINK_ReadReg(R1)  returns 0x4001380C (0000ms, 0776ms total)
T3FF8 006:125 JLINK_ReadReg(R2)  returns 0x20000078 (0000ms, 0776ms total)
T3FF8 006:125 JLINK_ReadReg(R3)  returns 0x20000078 (0000ms, 0776ms total)
T3FF8 006:125 JLINK_ReadReg(R4)  returns 0x00000000 (0000ms, 0776ms total)
T3FF8 006:125 JLINK_ReadReg(R5)  returns 0x20000014 (0000ms, 0776ms total)
T3FF8 006:125 JLINK_ReadReg(R6)  returns 0x00000000 (0001ms, 0777ms total)
T3FF8 006:126 JLINK_ReadReg(R7)  returns 0x00000000 (0000ms, 0777ms total)
T3FF8 006:126 JLINK_ReadReg(R8)  returns 0x00000000 (0000ms, 0777ms total)
T3FF8 006:126 JLINK_ReadReg(R9)  returns 0x20000160 (0000ms, 0777ms total)
T3FF8 006:126 JLINK_ReadReg(R10)  returns 0x0800061C (0000ms, 0777ms total)
T3FF8 006:126 JLINK_ReadReg(R11)  returns 0x00000000 (0000ms, 0777ms total)
T3FF8 006:126 JLINK_ReadReg(R12)  returns 0x20000054 (0000ms, 0777ms total)
T3FF8 006:126 JLINK_ReadReg(R13 (SP))  returns 0x20000478 (0000ms, 0777ms total)
T3FF8 006:126 JLINK_ReadReg(R14)  returns 0x08000471 (0001ms, 0778ms total)
T3FF8 006:127 JLINK_ReadReg(R15 (PC))  returns 0x08000576 (0000ms, 0778ms total)
T3FF8 006:127 JLINK_ReadReg(XPSR)  returns 0x01000000 (0000ms, 0778ms total)
T3FF8 006:127 JLINK_ReadReg(MSP)  returns 0x20000478 (0000ms, 0778ms total)
T3FF8 006:127 JLINK_ReadReg(PSP)  returns 0x20000800 (0000ms, 0778ms total)
T3FF8 006:127 JLINK_ReadReg(CFBP)  returns 0x00000000 (0000ms, 0778ms total)
T2918 006:133 JLINK_ReadMemU32(0xE0001004, 0x0001 Items, ...) -- CPU_ReadMem(4 bytes @ 0xE0001004) - Data: 00 DE 03 03  returns 0x01 (0001ms, 0779ms total)
T2918 006:137 JLINK_ReadMem (0x4002101C, 0x0004 Bytes, ...) -- CPU_ReadMem(4 bytes @ 0x4002101C) - Data: 00 00 00 00  returns 0x00 (0001ms, 0780ms total)
T2918 006:138 JLINK_ReadMem (0x40021010, 0x0004 Bytes, ...) -- CPU_ReadMem(4 bytes @ 0x40021010) - Data: 00 00 00 00  returns 0x00 (0000ms, 0780ms total)
T2918 006:138 JLINK_ReadMem (0x40021014, 0x0004 Bytes, ...) -- CPU_ReadMem(4 bytes @ 0x40021014) - Data: 14 00 00 00  returns 0x00 (0001ms, 0781ms total)
T2918 006:139 JLINK_ReadMem (0x40021018, 0x0004 Bytes, ...) -- CPU_ReadMem(4 bytes @ 0x40021018) - Data: 1C 48 00 00  returns 0x00 (0001ms, 0782ms total)
T2918 006:140 JLINK_ReadMem (0x4002100C, 0x0004 Bytes, ...) -- CPU_ReadMem(4 bytes @ 0x4002100C) - Data: 00 00 00 00  returns 0x00 (0001ms, 0783ms total)
T2918 006:141 JLINK_ReadMem (0x40021014, 0x0004 Bytes, ...) -- CPU_ReadMem(4 bytes @ 0x40021014) - Data: 14 00 00 00  returns 0x00 (0000ms, 0783ms total)
T2918 006:142 JLINK_ReadMem (0x40010C00, 0x0004 Bytes, ...) -- CPU_ReadMem(4 bytes @ 0x40010C00) - Data: 00 00 30 00  returns 0x00 (0000ms, 0783ms total)
T2918 006:142 JLINK_ReadMem (0x40010C04, 0x0004 Bytes, ...) -- CPU_ReadMem(4 bytes @ 0x40010C04) - Data: 00 40 44 44  returns 0x00 (0001ms, 0784ms total)
T2918 006:143 JLINK_ReadMem (0x40010C08, 0x0004 Bytes, ...) -- CPU_ReadMem(4 bytes @ 0x40010C08) - Data: 10 F8 00 00  returns 0x00 (0001ms, 0785ms total)
T2918 006:144 JLINK_ReadMem (0x40010C0C, 0x0004 Bytes, ...) -- CPU_ReadMem(4 bytes @ 0x40010C0C) - Data: 10 00 00 00  returns 0x00 (0001ms, 0786ms total)
T2918 006:145 JLINK_ReadMem (0x40010C10, 0x0004 Bytes, ...) -- CPU_ReadMem(4 bytes @ 0x40010C10) - Data: 00 00 00 00  returns 0x00 (0001ms, 0787ms total)
T2918 006:146 JLINK_ReadMem (0x40010C14, 0x0004 Bytes, ...) -- CPU_ReadMem(4 bytes @ 0x40010C14) - Data: 00 00 00 00  returns 0x00 (0000ms, 0787ms total)
T2918 006:146 JLINK_ReadMem (0x40010C18, 0x0004 Bytes, ...) -- CPU_ReadMem(4 bytes @ 0x40010C18) - Data: 00 00 00 00  returns 0x00 (0001ms, 0788ms total)
T2918 006:150 JLINK_ReadMem (0x40021018, 0x0004 Bytes, ...) -- CPU_ReadMem(4 bytes @ 0x40021018) - Data: 1C 48 00 00  returns 0x00 (0001ms, 0789ms total)
T2918 006:151 JLINK_ReadMem (0x4002100C, 0x0004 Bytes, ...) -- CPU_ReadMem(4 bytes @ 0x4002100C) - Data: 00 00 00 00  returns 0x00 (0000ms, 0789ms total)
T2918 006:152 JLINK_ReadMem (0x40010000, 0x0004 Bytes, ...) -- CPU_ReadMem(4 bytes @ 0x40010000) - Data: 00 00 00 00  returns 0x00 (0000ms, 0789ms total)
T2918 006:152 JLINK_ReadMem (0x40010004, 0x0004 Bytes, ...) -- CPU_ReadMem(4 bytes @ 0x40010004) - Data: 00 00 00 00  returns 0x00 (0001ms, 0790ms total)
T2918 006:153 JLINK_ReadMem (0x40010008, 0x0004 Bytes, ...) -- CPU_ReadMem(4 bytes @ 0x40010008) - Data: 00 00 00 00  returns 0x00 (0000ms, 0790ms total)
T2918 006:153 JLINK_ReadMem (0x4001000C, 0x0004 Bytes, ...) -- CPU_ReadMem(4 bytes @ 0x4001000C) - Data: 00 00 00 00  returns 0x00 (0001ms, 0791ms total)
T2918 006:154 JLINK_ReadMem (0x40010010, 0x0004 Bytes, ...) -- CPU_ReadMem(4 bytes @ 0x40010010) - Data: 00 00 00 00  returns 0x00 (0001ms, 0792ms total)
T2918 006:155 JLINK_ReadMem (0x40010014, 0x0004 Bytes, ...) -- CPU_ReadMem(4 bytes @ 0x40010014) - Data: 00 00 00 00  returns 0x00 (0000ms, 0792ms total)
T2918 006:155 JLINK_ReadMem (0x40021018, 0x0004 Bytes, ...) -- CPU_ReadMem(4 bytes @ 0x40021018) - Data: 1C 48 00 00  returns 0x00 (0001ms, 0793ms total)
T2918 006:156 JLINK_ReadMem (0x4002100C, 0x0004 Bytes, ...) -- CPU_ReadMem(4 bytes @ 0x4002100C) - Data: 00 00 00 00  returns 0x00 (0000ms, 0793ms total)
T2918 006:157 JLINK_ReadMem (0x40000400, 0x0004 Bytes, ...) -- CPU_ReadMem(4 bytes @ 0x40000400) - Data: 00 00 00 00  returns 0x00 (0000ms, 0793ms total)
T2918 006:157 JLINK_ReadMem (0x40000404, 0x0004 Bytes, ...) -- CPU_ReadMem(4 bytes @ 0x40000404) - Data: 00 00 00 00  returns 0x00 (0001ms, 0794ms total)
T2918 006:158 JLINK_ReadMem (0x40000408, 0x0004 Bytes, ...) -- CPU_ReadMem(4 bytes @ 0x40000408) - Data: 00 00 00 00  returns 0x00 (0000ms, 0794ms total)
T2918 006:159 JLINK_ReadMem (0x4000040C, 0x0004 Bytes, ...) -- CPU_ReadMem(4 bytes @ 0x4000040C) - Data: 00 00 00 00  returns 0x00 (0000ms, 0794ms total)
T2918 006:159 JLINK_ReadMem (0x40000410, 0x0004 Bytes, ...) -- CPU_ReadMem(4 bytes @ 0x40000410) - Data: 00 00 00 00  returns 0x00 (0001ms, 0795ms total)
T2918 006:160 JLINK_ReadMem (0x40000414, 0x0004 Bytes, ...) -- CPU_ReadMem(4 bytes @ 0x40000414) - Data: 00 00 00 00  returns 0x00 (0001ms, 0796ms total)
T2918 006:161 JLINK_ReadMem (0x40000418, 0x0004 Bytes, ...) -- CPU_ReadMem(4 bytes @ 0x40000418) - Data: 00 00 00 00  returns 0x00 (0000ms, 0796ms total)
T2918 006:161 JLINK_ReadMem (0x4000041C, 0x0004 Bytes, ...) -- CPU_ReadMem(4 bytes @ 0x4000041C) - Data: 00 00 00 00  returns 0x00 (0001ms, 0797ms total)
T2918 006:162 JLINK_ReadMem (0x40000420, 0x0004 Bytes, ...) -- CPU_ReadMem(4 bytes @ 0x40000420) - Data: 00 00 00 00  returns 0x00 (0001ms, 0798ms total)
T2918 006:163 JLINK_ReadMem (0x40000424, 0x0004 Bytes, ...) -- CPU_ReadMem(4 bytes @ 0x40000424) - Data: 00 00 00 00  returns 0x00 (0001ms, 0799ms total)
T2918 006:164 JLINK_ReadMem (0x40000428, 0x0004 Bytes, ...) -- CPU_ReadMem(4 bytes @ 0x40000428) - Data: 00 00 00 00  returns 0x00 (0000ms, 0799ms total)
T2918 006:164 JLINK_ReadMem (0x4000042C, 0x0004 Bytes, ...) -- CPU_ReadMem(4 bytes @ 0x4000042C) - Data: 00 00 00 00  returns 0x00 (0001ms, 0800ms total)
T2918 006:165 JLINK_ReadMem (0x40000430, 0x0004 Bytes, ...) -- CPU_ReadMem(4 bytes @ 0x40000430) - Data: 00 00 00 00  returns 0x00 (0000ms, 0800ms total)
T2918 006:165 JLINK_ReadMem (0x40000434, 0x0004 Bytes, ...) -- CPU_ReadMem(4 bytes @ 0x40000434) - Data: 00 00 00 00  returns 0x00 (0001ms, 0801ms total)
T2918 006:166 JLINK_ReadMem (0x40000438, 0x0004 Bytes, ...) -- CPU_ReadMem(4 bytes @ 0x40000438) - Data: 00 00 00 00  returns 0x00 (0001ms, 0802ms total)
T2918 006:167 JLINK_ReadMem (0x4000043C, 0x0004 Bytes, ...) -- CPU_ReadMem(4 bytes @ 0x4000043C) - Data: 00 00 00 00  returns 0x00 (0000ms, 0802ms total)
